#Digilent WaveForms Network Analyzer - Bode
#Device Name: Discovery2
#Serial Number: SN:210321A18A0F
#Date Time: 2017-10-06 13:14:36.513

Frequency (Hz),Channel 2 Magnitude (dB),Channel 2 Phase (°)
10,-0.0089000246462569085,-0.35309590399059232
10.59560179277617,-0.0088089552069338228,-0.3731751257948801
11.226677735108135,-0.0088692140840836448,-0.39487978896045917
11.895340673703183,-0.0089033045730109121,-0.41904041294802852
12.603829296797274,-0.0089806835086279468,-0.44379581876544449
13.354515629298975,-0.0089376780497358293,-0.46942399164064597
14.14991297434576,-0.008857283939279155,-0.49754939463508663
14.992684327860472,-0.0092592684693169423,-0.5277164520115285
15.885651294280528,-0.0091833039090098677,-0.55951680364806222
16.83180353330955,-0.0094993331693491809,-0.59139299422538016
17.834308769319094,-0.0094748711912434717,-0.62699964046310797
18.896523396912116,-0.0097609447468360155,-0.66465021673730718
20.022003718155844,-0.009937618116213737,-0.70311287100353859
21.214517849106279,-0.010306099884988981,-0.74610559967375956
22.478058335487251,-0.010138717967100889,-0.78870934231821699
23.816855519761607,-0.010638109799975487,-0.83782294141891489
25.235391704347659,-0.010692449194742173,-0.88693562064051612
26.738416158399492,-0.010770831415831669,-0.93867748038242205
28.330961018393239,-0.01100123563543717,-0.99450111065615943
30.018358135755861,-0.011362205838795197,-1.0536268289169897
31.806256927941188,-0.011332771208843689,-1.1162530112489613
33.70064329271932,-0.01186641063411341,-1.1823354645965054
35.707859649004625,-0.012013221478213976,-1.2532064978039443
37.83462617131925,-0.012517534815658326,-1.3267720726893018
40.08806328898465,-0.012778062425055603,-1.4049697573713971
42.47571552536894,-0.01317080682707669,-1.4899338178367287
45.005576757004974,-0.013525192035051389,-1.5771418164589903
47.686116977144742,-0.014360112310163761,-1.6716581365935497
50.526310653356795,-0.014762679165357458,-1.7704667400910949
53.535666774107192,-0.015476279618393559,-1.8748318701537698
56.724260684919777,-0.016159176307659312,-1.9854496195225266
60.102767820703875,-0.017021312170328158,-2.1042905456434937
63.682499447185855,-0.017683109890117971,-2.2290316868894706
67.475440531106855,-0.01869847410128879,-2.3609666279819237
71.494289865975759,-0.019628788111252925,-2.5007750446481225
75.752502587719206,-0.02129908982826495,-2.6502596003317933
80.264335222571731,-0.02257958178310869,-2.8058360558350444
85.044893418026859,-0.023787965278151794,-2.9739104208498759
90.110182516650184,-0.025463921708146174,-3.1494158468172202
95.477161142080462,-0.026963849034636399,-3.3357984523518525
101.1637979766207,-0.029330922192047044,-3.5331667859661735
107.18913192051275,-0.031605937338734562,-3.7402714533930492
113.57333583431053,-0.034145657436799842,-3.9637405720309147
120.33778407775881,-0.036986218554607576,-4.1983756981083724
127.50512407130141,-0.040196059905490453,-4.4449568800992836
135.09935211980266,-0.043853700371796284,-4.7074933472505407
143.14589375234786,-0.047588732094031402,-4.9862694084694397
151.67168884709241,-0.051942692240565788,-5.2802617292439891
160.70528182616383,-0.057191317242177284,-5.5922056018254978
170.27691722259013,-0.062413326008126165,-5.9216012089786716
180.41864093920717,-0.068798551202153044,-6.2675469087840554
191.16440753857017,-0.07556284963370366,-6.6363045956451572
202.55019392306664,-0.083431566789733236,-7.0270809908526104
214.61411978584013,-0.091940724988523653,-7.4384603778160727
227.39657523579299,-0.10134841986546558,-7.8741950461002865
240.94035602395243,-0.11171843696115318,-8.334520240107409
255.29080682395164,-0.12356213282727399,-8.8198456192183698
270.49597304631374,-0.13674513277891315,-9.3343244776406777
286.60676169482502,-0.15091694826436766,-9.8766598946145479
303.67711180354604,-0.16758246949207201,-10.44746364841069
321.76417502507354,-0.18591101069638435,-11.051904581319464
340.92850697468111,-0.20589763844936701,-11.687834375864071
361.23426997094305,-0.22864685468029095,-12.360558425372602
382.74944785163069,-0.25353940261284913,-13.063126226501822
405.54607358408316,-0.28187937327090662,-13.810818825436286
429.70047043208393,-0.31267712746014331,-14.593685550067093
455.29350748669475,-0.34750254465722519,-15.413564687963856
482.41087041653736,-0.38594777282667303,-16.2761017790247
511.14334834401654,-0.42845025572672746,-17.182722486707608
541.58713780794767,-0.47574806328748032,-18.130856308245953
573.84416483023927,-0.52828155980422031,-19.126743105173318
608.02242616494209,-0.58581991038057768,-20.164653449200493
644.23635087213711,-0.64982522361241091,-21.247918824155107
682.60718342723794,-0.71956912645657056,-22.380010396356113
723.26338964835406,-0.7976860472658388,-23.556289430848423
766.34108680074542,-0.88250641907519123,-24.781065336242534
811.98449931840082,-0.97616143062022398,-26.048804901264138
860.34644166845089,-1.0784345015033456,-27.35967579646659
911.58882997508192,-1.1898746471618915,-28.715159467271661
965.88322411587092,-1.3117294988559538,-30.111089802346626
1023.4114021054528,-1.444077305447673,-31.547045669641754
1084.3659686896096,-1.5881157362585956,-33.013148183141361
1148.9510001873086,-1.7431077180480248,-34.520497923157301
1217.3827277396595,-1.9105591553106807,-36.055077513588969
1289.8902612533095,-2.0907967161664471,-37.614528531894635
1366.7163564620059,-2.2838178667780702,-39.193128332853377
1448.118227674533,-2.4900556205518667,-40.789410314179761
1534.3684089300132,-2.710363885710029,-42.394287633508895
1625.755666443795,-2.9446268519926591,-44.009213147925408
1722.5859653987875,-3.1919789354615693,-45.62832927024499
1825.1834943190424,-3.452986254258958,-47.23834703616096
1933.8917504552301,-3.7281298903658988,-48.839996944454029
2049.0746898158459,-4.0175431026682276,-50.433797515428573
2171.1179456945051,-4.3194933983216934,-52.006723354621741
2300.4301197729192,-4.6343460005216706,-53.552986920706644
2437.4441501222195,-4.9616253219301445,-55.075227648686038
2582.6187606826747,-5.3014540987589118,-56.567712068432314
2736.4399970746717,-5.6533070056566306,-58.024192067277049
2899.4228538828779,-6.014755382158711,-59.445518396874206
3072.112998861759,-6.3872990222301045,-60.829806874877008
3255.0885998350564,-6.7708833456990183,-62.17210751711908
3448.9622604057563,-7.1623634447140869,-63.46741639709326
3654.3830709572544,-7.5632351730472616,-64.719617432124821
3872.0387818125569,-7.9721513643181297,-65.928240866252224
4102.658105827195,-8.3898935077230608,-67.098434106965925
4347.0131581250216,-8.8131246848701537,-68.213087723980863
4605.9220411451042,-9.243227139676792,-69.28711146545146
4880.2515836544335,-9.6791208055021727,-70.320251846753692
5170.920242896761,-10.12187623470691,-71.303254741928214
5478.901179593945,-10.569717141906548,-72.245079984612346
5805.2255160948962,-11.021225122294426,-73.144569598104113
6150.9857885804977,-11.478888908488313,-74.003181631784713
6517.3396048824197,-11.938649785039031,-74.828189338167761
6905.5135201623307,-12.40174362284028,-75.588754830628545
7316.8071434271997,-12.870357419253954,-76.330843468346572
7752.5974886294562,-13.343071849781293,-77.056907338862501
8214.3435849194229,-13.813878228827035,-77.718761611085966
8703.591361485167,-14.289457924439869,-78.344683297202948
9221.9788233343315,-14.768881446642512,-78.951743732893064
9771.2415353465021,-15.247724636176267,-79.523595471691479
10353.218432956615,-15.728951407754408,-80.068506898827479
10969.857978923828,-16.217810511071001,-80.591856147072662
11623.224686798523,-16.697991920862304,-81.068736533806515
12315.506032928261,-17.187500225248932,-81.53692264057814
13049.01978014403,-17.671146930973261,-81.981491148253639
13826.221737646563,-18.159836552904377,-82.390673598129069
14649.713983072848,-18.654878755200794,-82.77584490710214
15522.253574270471,-19.14314387240498,-83.158609968107271
16446.761779946642,-19.637077178257826,-83.5360858403686
17426.333860096507,-20.135823584258816,-83.827076440675967
18464.249428955442,-20.630233734114359,-84.147852244004895
19563.98343517063,-21.118638500224645,-84.429075462725621
20729.217795953711,-21.614132270534213,-84.710954098941386
21963.85372416547,-22.115006684058571,-84.969168489754679
23272.024789604096,-22.608425527455932,-85.303470942583289
24658.110758226037,-23.102442591837381,-85.473056952573643
26126.752255633262,-23.599222093437596,-85.687932809937877
27682.866303920651,-24.100584975731948,-85.884296910902265
29331.662783900454,-24.594969305567417,-86.059268582685718
31078.661877820141,-25.09668022076476,-86.267311333661297
32929.712550971512,-25.590843976168923,-86.385397707180232
34891.0121340677,-26.09185526024423,-86.572851610976954
36969.127071950265,-26.604808887352746,-86.787627067103998
39171.014908092606,-27.083717173324139,-86.882732909226917
41504.047578504767,-27.616919971545411,-87.088007834472876
43976.036093027215,-28.094813616328572,-87.133341239909896
46595.256686646775,-28.590561168192203,-87.255524175398776
49370.478528390013,-29.100854237937831,-87.515868966651951
52310.993080562635,-29.602227031935971,-87.628560453462725
55426.645206631067,-30.100058702687896,-87.776501500747571
58727.866131894829,-30.592952205723861,-87.536513734016964
62225.70836730225,-31.093725527541753,-87.851054709348631
65931.88271333545,-31.613091764206992,-87.847316355330292
69858.797467852492,-32.09708940591252,-88.09490978865631
74019.599969156436,-32.565693962997116,-88.131257767446712
78428.22061337682,-33.069754152426086,-88.024871578205648
83099.419493533875,-33.529869300201398,-88.216055949785357
88048.835816434599,-34.105760687218016,-88.302807324422247
93293.040262846858,-34.566180412132276,-88.330106091131825
98849.590466255875,-35.027624044621618,-87.891565134380841
104737.08979594499,-35.636414484631914,-88.394687999834872
110975.24964120713,-36.09382111091206,-88.699107045233887
117584.95540521563,-36.601270778573003,-88.242600483034607
124588.33642950079,-37.054854726058331,-88.255770562592602
132008.84008314181,-37.593152989376037,-88.743638878532977
139871.3102647239,-37.995297945438601,-88.592286629577004
148202.07057988574,-38.575388976431164,-89.316123309661776
157029.01247293767,-39.048037946919237,-88.871533861083378
166381.68860761289,-39.647723922036405,-88.944120842029562
176291.41180959478,-40.087664099322581,-89.021548396291337
186791.35990207831,-40.683047816502267,-87.961375821320402
197916.68678535559,-41.046822374565238,-88.182893240455343
209704.64013232317,-41.545486759240113,-89.164911813642561
222194.68609395233,-42.094476542437803,-88.50326159424948
235428.6414322418,-42.588588949218149,-88.066676529955046
249450.81352303171,-43.102678845678575,-88.55430505861321
264308.14869741071,-43.624368107894,-86.941479500120693
280050.38941836299,-44.026862489310176,-88.792121556218433
296730.2408188869,-44.798110285490147,-88.624483214316399
314403.54715915001,-45.477830858965746,-86.472117441566752
333129.47879346745,-45.720876767693056,-88.862203028273584
352970.73027306522,-46.407662318719325,-89.328179622464575
373993.73024787958,-46.693437981932895,-88.583626640081519
396268.86387014767,-47.512227638875579,-87.387999263478306
419870.70844439103,-48.080399435411572,-88.684933451487552
444878.28311275865,-48.384865921859934,-87.361154849163995
471375.31341167266,-48.891147052309037,-86.87630846278455
499450.51158551371,-49.645831667904126,-86.231692040391636
529197.87359584402,-49.842975210491325,-88.059884227179055
560716.99382054585,-50.81982215051945,-87.707918359368364
594113.39849650359,-51.259177707174679,-87.013929854492403
629498.89902218909,-51.840084300619687,-85.959526268950356
666991.96630301187,-52.496396035536463,-87.251118858337861
706718.12739274895,-53.073162084607048,-85.723585778305107
748810.3857590023,-53.740237607777914,-86.044988997695526
793409.66657974944,-54.297774456114176,-85.650218978681252
840665.28856183297,-54.876046784471484,-87.164607916907642
890735.46386104356,-55.882598916399232,-82.576679627882484
943787.82777753787,-56.432730350929418,-87.83499644660553
1000000,-57.377569787707102,-86.156047358200453
